Freq.	V(out5)
1.00000000000000e+003	-1.88996197262003e+001,8.20931322802679e-002
1.00695555005672e+003	-1.88996147335098e+001,8.26641075331398e-002
1.01395947979003e+003	-1.88996096711286e+001,8.32390536523030e-002
1.02101212570719e+003	-1.88996045380840e+001,8.38179982450411e-002
1.02811382665607e+003	-1.88995993333898e+001,8.44009691105215e-002
1.03526492384138e+003	-1.88995940560459e+001,8.49879942409773e-002
1.04246576084112e+003	-1.88995887050383e+001,8.55791018230327e-002
1.04971668362307e+003	-1.88995832793389e+001,8.61743202391339e-002
1.05701804056138e+003	-1.88995777779051e+001,8.67736780688693e-002
1.06437018245336e+003	-1.88995721996799e+001,8.73772040902857e-002
1.07177346253629e+003	-1.88995665435915e+001,8.79849272813801e-002
1.07922823650443e+003	-1.88995608085530e+001,8.85968768213276e-002
1.08673486252606e+003	-1.88995549934627e+001,8.92130820920250e-002
1.09429370126074e+003	-1.88995490972031e+001,8.98335726793811e-002
1.10190511587661e+003	-1.88995431186414e+001,9.04583783748162e-002
1.10956947206785e+003	-1.88995370566289e+001,9.10875291765960e-002
1.11728713807222e+003	-1.88995309100007e+001,9.17210552913781e-002
1.12505848468881e+003	-1.88995246775761e+001,9.23589871354998e-002
1.13288388529580e+003	-1.88995183581573e+001,9.30013553365942e-002
1.14076371586843e+003	-1.88995119505304e+001,9.36481907349450e-002
1.14869835499704e+003	-1.88995054534641e+001,9.42995243849830e-002
1.15668818390529e+003	-1.88994988657101e+001,9.49553875567949e-002
1.16473358646846e+003	-1.88994921860027e+001,9.56158117375754e-002
1.17283494923188e+003	-1.88994854130585e+001,9.62808286331528e-002
1.18099266142953e+003	-1.88994785455763e+001,9.69504701695557e-002
1.18920711500272e+003	-1.88994715822365e+001,9.76247684943597e-002
1.19747870461893e+003	-1.88994645217013e+001,9.83037559784504e-002
1.20580782769076e+003	-1.88994573626142e+001,9.89874652173798e-002
1.21419488439505e+003	-1.88994501035996e+001,9.96759290330518e-002
1.22264027769207e+003	-1.88994427432630e+001,1.00369180475265e-001
1.23114441334492e+003	-1.88994352801901e+001,1.01067252823123e-001
1.23970769993899e+003	-1.88994277129472e+001,1.01770179586862e-001
1.24833054890162e+003	-1.88994200400804e+001,1.02477994509361e-001
1.25701337452183e+003	-1.88994122601155e+001,1.03190731567625e-001
1.26575659397028e+003	-1.88994043715578e+001,1.03908424974630e-001
1.27456062731927e+003	-1.88993963728918e+001,1.04631109180741e-001
1.28342589756291e+003	-1.88993882625806e+001,1.05358818875482e-001
1.29235283063750e+003	-1.88993800390662e+001,1.06091588989161e-001
1.30134185544194e+003	-1.88993717007687e+001,1.06829454694553e-001
1.31039340385837e+003	-1.88993632460860e+001,1.07572451408440e-001
1.31950791077290e+003	-1.88993546733939e+001,1.08320614793518e-001
1.32868581409652e+003	-1.88993459810454e+001,1.09073980759926e-001
1.33792755478612e+003	-1.88993371673705e+001,1.09832585467035e-001
1.34723357686570e+003	-1.88993282306761e+001,1.10596465325170e-001
1.35660432744768e+003	-1.88993191692452e+001,1.11365656997277e-001
1.36604025675440e+003	-1.88993099813370e+001,1.12140197400686e-001
1.37554181813975e+003	-1.88993006651863e+001,1.12920123709007e-001
1.38510946811093e+003	-1.88992912190036e+001,1.13705473353660e-001
1.39474366635041e+003	-1.88992816409739e+001,1.14496284025884e-001
1.40444487573800e+003	-1.88992719292573e+001,1.15292593678326e-001
1.41421356237310e+003	-1.88992620819880e+001,1.16094440527023e-001
1.42405019559708e+003	-1.88992520972744e+001,1.16901863053170e-001
1.43395524801583e+003	-1.88992419731983e+001,1.17714900004794e-001
1.44392919552250e+003	-1.88992317078148e+001,1.18533590398883e-001
1.45397251732032e+003	-1.88992212991518e+001,1.19357973522978e-001
1.46408569594563e+003	-1.88992107452098e+001,1.20188088937199e-001
1.47426921729111e+003	-1.88992000439615e+001,1.21023976476042e-001
1.48452357062906e+003	-1.88991891933509e+001,1.21865676250339e-001
1.49484924863495e+003	-1.88991781912938e+001,1.22713228649038e-001
1.50524674741107e+003	-1.88991670356766e+001,1.23566674341359e-001
1.51571656651041e+003	-1.88991557243565e+001,1.24426054278403e-001
1.52625920896057e+003	-1.88991442551604e+001,1.25291409695474e-001
1.53687518128802e+003	-1.88991326258852e+001,1.26162782113629e-001
1.54756499354240e+003	-1.88991208342971e+001,1.27040213341973e-001
1.55832915932101e+003	-1.88991088781308e+001,1.27923745479537e-001
1.56916819579351e+003	-1.88990967550898e+001,1.28813420917156e-001
1.58008262372676e+003	-1.88990844628453e+001,1.29709282339720e-001
1.59107296750985e+003	-1.88990719990361e+001,1.30611372727942e-001
1.60213975517925e+003	-1.88990593612681e+001,1.31519735360635e-001
1.61328351844426e+003	-1.88990465471137e+001,1.32434413816522e-001
1.62450479271248e+003	-1.88990335541114e+001,1.33355451976553e-001
1.63580411711557e+003	-1.88990203797656e+001,1.34282894025828e-001
1.64718203453516e+003	-1.88990070215457e+001,1.35216784455642e-001
1.65863909162889e+003	-1.88989934768858e+001,1.36157168065769e-001
1.67017583885675e+003	-1.88989797431843e+001,1.37104089966492e-001
1.68179283050744e+003	-1.88989658178032e+001,1.38057595580706e-001
1.69349062472506e+003	-1.88989516980677e+001,1.39017730646029e-001
1.70526978353592e+003	-1.88989373812659e+001,1.39984541217245e-001
1.71713087287552e+003	-1.88989228646479e+001,1.40958073668051e-001
1.72907446261574e+003	-1.88989081454253e+001,1.41938374693617e-001
1.74110112659226e+003	-1.88988932207711e+001,1.42925491312621e-001
1.75321144263208e+003	-1.88988780878187e+001,1.43919470869549e-001
1.76540599258132e+003	-1.88988627436616e+001,1.44920361036825e-001
1.77768536233315e+003	-1.88988471853527e+001,1.45928209817153e-001
1.79005014185596e+003	-1.88988314099038e+001,1.46943065545909e-001
1.80250092522167e+003	-1.88988154142849e+001,1.47964976893098e-001
1.81503831063433e+003	-1.88987991954241e+001,1.48993992865858e-001
1.82766290045881e+003	-1.88987827502062e+001,1.50030162810924e-001
1.84037530124976e+003	-1.88987660754729e+001,1.51073536416605e-001
1.85317612378075e+003	-1.88987491680217e+001,1.52124163715442e-001
1.86606598307363e+003	-1.88987320246055e+001,1.53182095086406e-001
1.87904549842804e+003	-1.88987146419318e+001,1.54247381257352e-001
1.89211529345121e+003	-1.88986970166623e+001,1.55320073307283e-001
1.90527599608789e+003	-1.88986791454120e+001,1.56400222668975e-001
1.91852823865054e+003	-1.88986610247490e+001,1.57487881131203e-001
1.93187265784971e+003	-1.88986426511932e+001,1.58583100841348e-001
1.94530989482459e+003	-1.88986240212160e+001,1.59685934307627e-001
1.95884059517387e+003	-1.88986051312399e+001,1.60796434401848e-001
1.97246540898673e+003	-1.88985859776372e+001,1.61914654361646e-001
1.98618499087409e+003	-1.88985665567296e+001,1.63040647793238e-001
2.00000000000002e+003	-1.88985468647878e+001,1.64174468673697e-001
2.01391110011345e+003	-1.88985268980303e+001,1.65316171353707e-001
2.02791895958007e+003	-1.88985066526227e+001,1.66465810559952e-001
2.04202425141440e+003	-1.88984861246775e+001,1.67623441397821e-001
2.05622765331215e+003	-1.88984653102527e+001,1.68789119353850e-001
2.07052984768277e+003	-1.88984442053515e+001,1.69962900298540e-001
2.08493152168226e+003	-1.88984228059212e+001,1.71144840488784e-001
2.09943336724615e+003	-1.88984011078529e+001,1.72334996570668e-001
2.11403608112278e+003	-1.88983791069801e+001,1.73533425581973e-001
2.12874036490674e+003	-1.88983567990782e+001,1.74740184954950e-001
2.14354692507261e+003	-1.88983341798640e+001,1.75955332519114e-001
2.15845647300887e+003	-1.88983112449943e+001,1.77178926503647e-001
2.17346972505214e+003	-1.88982879900654e+001,1.78411025540562e-001
2.18858740252150e+003	-1.88982644106124e+001,1.79651688666978e-001
2.20381023175324e+003	-1.88982405021078e+001,1.80900975328308e-001
2.21913894413571e+003	-1.88982162599613e+001,1.82158945380808e-001
2.23457427614446e+003	-1.88981916795184e+001,1.83425659094449e-001
2.25011696937764e+003	-1.88981667560599e+001,1.84701177155731e-001
2.26576777059162e+003	-1.88981414848006e+001,1.85985560670462e-001
2.28152743173687e+003	-1.88981158608887e+001,1.87278871166762e-001
2.29739670999409e+003	-1.88980898794048e+001,1.88581170597785e-001
2.31337636781060e+003	-1.88980635353608e+001,1.89892521344723e-001
2.32946717293693e+003	-1.88980368236992e+001,1.91212986219751e-001
2.34566989846378e+003	-1.88980097392920e+001,1.92542628468753e-001
2.36198532285908e+003	-1.88979822769396e+001,1.93881511774491e-001
2.37841423000547e+003	-1.88979544313700e+001,1.95229700259601e-001
2.39495740923788e+003	-1.88979261972377e+001,1.96587258489337e-001
2.41161565538155e+003	-1.88978975691227e+001,1.97954251474789e-001
2.42838976879012e+003	-1.88978685415294e+001,1.99330744675979e-001
2.44528055538416e+003	-1.88978391088858e+001,2.00716804004588e-001
2.46228882668986e+003	-1.88978092655420e+001,2.02112495827384e-001
2.47941539987800e+003	-1.88977790057695e+001,2.03517886969100e-001
2.49666109780325e+003	-1.88977483237598e+001,2.04933044715638e-001
2.51402674904368e+003	-1.88977172136237e+001,2.06358036817207e-001
2.53151318794059e+003	-1.88976856693897e+001,2.07792931491351e-001
2.54912125463855e+003	-1.88976536850032e+001,2.09237797426204e-001
2.56685179512584e+003	-1.88976212543253e+001,2.10692703783747e-001
2.58470566127501e+003	-1.88975883711313e+001,2.12157720202961e-001
2.60268371088390e+003	-1.88975550291100e+001,2.13632916802955e-001
2.62078680771676e+003	-1.88975212218622e+001,2.15118364186453e-001
2.63901582154582e+003	-1.88974869428994e+001,2.16614133442827e-001
2.65737162819305e+003	-1.88974521856429e+001,2.18120296151548e-001
2.67585510957225e+003	-1.88974169434221e+001,2.19636924385386e-001
2.69446715373141e+003	-1.88973812094737e+001,2.21164090713902e-001
2.71320865489537e+003	-1.88973449769400e+001,2.22701868206692e-001
2.73208051350882e+003	-1.88973082388679e+001,2.24250330436786e-001
2.75108363627952e+003	-1.88972709882072e+001,2.25809551484043e-001
2.77021893622188e+003	-1.88972332178097e+001,2.27379605938563e-001
2.78948733270084e+003	-1.88971949204275e+001,2.28960568904112e-001
2.80888975147603e+003	-1.88971560887118e+001,2.30552516001781e-001
2.82842712474622e+003	-1.88971167152114e+001,2.32155523373229e-001
2.84810039119418e+003	-1.88970767923713e+001,2.33769667684312e-001
2.86791049603169e+003	-1.88970363125313e+001,2.35395026128467e-001
2.88785839104503e+003	-1.88969952679243e+001,2.37031676430597e-001
2.90794503464066e+003	-1.88969536506754e+001,2.38679696850242e-001
2.92817139189129e+003	-1.88969114527996e+001,2.40339166185527e-001
2.94853843458224e+003	-1.88968686662009e+001,2.42010163776529e-001
2.96904714125813e+003	-1.88968252826707e+001,2.43692769509125e-001
2.98969849726991e+003	-1.88967812938857e+001,2.45387063818389e-001
3.01049349482217e+003	-1.88967366914069e+001,2.47093127692632e-001
3.03143313302083e+003	-1.88966914666779e+001,2.48811042676671e-001
3.05251841792116e+003	-1.88966456110229e+001,2.50540890876221e-001
3.07375036257606e+003	-1.88965991156454e+001,2.52282754960911e-001
3.09512998708482e+003	-1.88965519716264e+001,2.54036718168526e-001
3.11665831864204e+003	-1.88965041699228e+001,2.55802864308754e-001
3.13833639158704e+003	-1.88964557013654e+001,2.57581277766785e-001
3.16016524745355e+003	-1.88964065566575e+001,2.59372043507582e-001
3.18214593501972e+003	-1.88963567263729e+001,2.61175247079213e-001
3.20427951035853e+003	-1.88963062009541e+001,2.62990974617289e-001
3.22656703688855e+003	-1.88962549707107e+001,2.64819312848650e-001
3.24900958542499e+003	-1.88962030258173e+001,2.66660349095043e-001
3.27160823423117e+003	-1.88961503563118e+001,2.68514171277551e-001
3.29436406907034e+003	-1.88960969520932e+001,2.70380867920439e-001
3.31727818325781e+003	-1.88960428029201e+001,2.72260528155030e-001
3.34035167771352e+003	-1.88959878984087e+001,2.74153241723853e-001
3.36358566101490e+003	-1.88959322280302e+001,2.76059098984598e-001
3.38698124945015e+003	-1.88958757811098e+001,2.77978190914626e-001
3.41053956707187e+003	-1.88958185468238e+001,2.79910609114301e-001
3.43426174575106e+003	-1.88957605141979e+001,2.81856445812094e-001
3.45814892523151e+003	-1.88957016721052e+001,2.83815793867892e-001
3.48220225318455e+003	-1.88956420092638e+001,2.85788746777679e-001
3.50642288526419e+003	-1.88955815142351e+001,2.87775398677779e-001
3.53081198516267e+003	-1.88955201754210e+001,2.89775844348605e-001
3.55537072466633e+003	-1.88954579810623e+001,2.91790179219434e-001
3.58010028371194e+003	-1.88953949192359e+001,2.93818499372662e-001
3.60500185044337e+003	-1.88953309778532e+001,2.95860901547778e-001
3.63007662126870e+003	-1.88952661446572e+001,2.97917483146059e-001
3.65532580091766e+003	-1.88952004072204e+001,2.99988342234523e-001
3.68075060249955e+003	-1.88951337529424e+001,3.02073577551108e-001
3.70635224756154e+003	-1.88950661690476e+001,3.04173288507940e-001
3.73213196614728e+003	-1.88949976425827e+001,3.06287575196826e-001
3.75809099685610e+003	-1.88949281604143e+001,3.08416538393215e-001
3.78423058690244e+003	-1.88948577092262e+001,3.10560279560709e-001
3.81055199217581e+003	-1.88947862755172e+001,3.12718900855630e-001
3.83705647730112e+003	-1.88947138455982e+001,3.14892505131620e-001
3.86374531569944e+003	-1.88946404055898e+001,3.17081195944210e-001
3.89061978964920e+003	-1.88945659414196e+001,3.19285077555557e-001
3.91768119034777e+003	-1.88944904388196e+001,3.21504254938580e-001
3.94493081797350e+003	-1.88944138833233e+001,3.23738833782150e-001
3.97236998174820e+003	-1.88943362602633e+001,3.25988920495410e-001
4.00000000000006e+003	-1.88942575547681e+001,3.28254622212562e-001
4.02782220022694e+003	-1.88941777517596e+001,3.30536046798133e-001
4.05583791916018e+003	-1.88940968359500e+001,3.32833302850638e-001
4.08404850282884e+003	-1.88940147918391e+001,3.35146499708200e-001
4.11245530662433e+003	-1.88939316037114e+001,3.37475747453284e-001
4.14105969536558e+003	-1.88938472556327e+001,3.39821156917216e-001
4.16986304336455e+003	-1.88937617314476e+001,3.42182839685150e-001
4.19886673449234e+003	-1.88936750147762e+001,3.44560908101208e-001
4.22807216224559e+003	-1.88935870890109e+001,3.46955475272982e-001
4.25748072981351e+003	-1.88934979373134e+001,3.49366655076990e-001
4.28709385014524e+003	-1.88934075426116e+001,3.51794562162943e-001
4.31691294601778e+003	-1.88933158875960e+001,3.54239311959334e-001
4.34693945010430e+003	-1.88932229547169e+001,3.56701020678413e-001
4.37717480504303e+003	-1.88931287261806e+001,3.59179805320889e-001
4.40762046350651e+003	-1.88930331839465e+001,3.61675783681220e-001
4.43827788827145e+003	-1.88929363097233e+001,3.64189074352769e-001
4.46914855228895e+003	-1.88928380849658e+001,3.66719796732845e-001
4.50023393875531e+003	-1.88927384908710e+001,3.69268071027873e-001
4.53153554118327e+003	-1.88926375083753e+001,3.71834018258511e-001
4.56305486347377e+003	-1.88925351181500e+001,3.74417760265078e-001
4.59479341998822e+003	-1.88924313005983e+001,3.77019419712227e-001
4.62675273562123e+003	-1.88923260358511e+001,3.79639120095193e-001
4.65893434587390e+003	-1.88922193037640e+001,3.82276985743941e-001
4.69133979692759e+003	-1.88921110839125e+001,3.84933141829446e-001
4.72397064571820e+003	-1.88920013555888e+001,3.87607714368321e-001
4.75682846001096e+003	-1.88918900977979e+001,3.90300830228893e-001
4.78991481847580e+003	-1.88917772892533e+001,3.93012617135735e-001
4.82323131076312e+003	-1.88916629083731e+001,3.95743203675805e-001
4.85677953758027e+003	-1.88915469332762e+001,3.98492719303444e-001
4.89056111076836e+003	-1.88914293417777e+001,4.01261294346290e-001
4.92457765337975e+003	-1.88913101113852e+001,4.04049060010363e-001
4.95883079975603e+003	-1.88911892192941e+001,4.06856148385640e-001
4.99332219560653e+003	-1.88910666423836e+001,4.09682692452298e-001
5.02805349808740e+003	-1.88909423572125e+001,4.12528826084804e-001
5.06302637588121e+003	-1.88908163400142e+001,4.15394684059187e-001
5.09824250927713e+003	-1.88906885666927e+001,4.18280402057634e-001
5.13370359025170e+003	-1.88905590128182e+001,4.21186116674330e-001
5.16941132255006e+003	-1.88904276536217e+001,4.24111965421570e-001
5.20536742176782e+003	-1.88902944639915e+001,4.27058086734763e-001
5.24157361543354e+003	-1.88901594184673e+001,4.30024619978609e-001
5.27803164309167e+003	-1.88900224912364e+001,4.33011705453128e-001
5.31474325638614e+003	-1.88898836561282e+001,4.36019484398701e-001
5.35171021914454e+003	-1.88897428866094e+001,4.39048099002641e-001
5.38893430746286e+003	-1.88896001557794e+001,4.42097692404322e-001
5.42641730979078e+003	-1.88894554363647e+001,4.45168408701645e-001
5.46416102701768e+003	-1.88893087007142e+001,4.48260392956402e-001
5.50216727255907e+003	-1.88891599207937e+001,4.51373791200971e-001
5.54043787244380e+003	-1.88890090681809e+001,4.54508750443217e-001
5.57897466540172e+003	-1.88888561140599e+001,4.57665418673301e-001
5.61777950295209e+003	-1.88887010292159e+001,4.60843944869280e-001
5.65685424949248e+003	-1.88885437840296e+001,4.64044479003011e-001
5.69620078238839e+003	-1.88883843484718e+001,4.67267172046390e-001
5.73582099206341e+003	-1.88882226920976e+001,4.70512175977431e-001
5.77571678209009e+003	-1.88880587840409e+001,4.73779643786422e-001
5.81589006928135e+003	-1.88878925930084e+001,4.77069729481575e-001
5.85634278378261e+003	-1.88877240872740e+001,4.80382588095651e-001
5.89707686916451e+003	-1.88875532346726e+001,4.83718375691910e-001
5.93809428251631e+003	-1.88873800025943e+001,4.87077249370258e-001
5.97939699453987e+003	-1.88872043579782e+001,4.90459367273467e-001
6.02098698964438e+003	-1.88870262673062e+001,4.93864888593246e-001
6.06286626604171e+003	-1.88868456965968e+001,4.97293973576849e-001
6.10503683584235e+003	-1.88866626113988e+001,5.00746783533173e-001
6.14750072515217e+003	-1.88864769767848e+001,5.04223480838654e-001
6.19025997416968e+003	-1.88862887573445e+001,5.07724228943908e-001
6.23331663728412e+003	-1.88860979171786e+001,5.11249192380404e-001
6.27667278317413e+003	-1.88859044198915e+001,5.14798536766086e-001
6.32033049490714e+003	-1.88857082285851e+001,5.18372428812242e-001
6.36429187003947e+003	-1.88855093058515e+001,5.21971036329516e-001
6.40855902071710e+003	-1.88853076137661e+001,5.25594528234689e-001
6.45313407377714e+003	-1.88851031138808e+001,5.29243074556662e-001
6.49801917085001e+003	-1.88848957672166e+001,5.32916846443906e-001
6.54321646846238e+003	-1.88846855342565e+001,5.36616016169000e-001
6.58872813814071e+003	-1.88844723749380e+001,5.40340757137221e-001
6.63455636651566e+003	-1.88842562486459e+001,5.44091243891188e-001
6.68070335542709e+003	-1.88840371142043e+001,5.47867652119310e-001
6.72717132202985e+003	-1.88838149298698e+001,5.51670158660130e-001
6.77396249890035e+003	-1.88835896533228e+001,5.55498941510769e-001
6.82107913414379e+003	-1.88833612416602e+001,5.59354179832242e-001
6.86852349150217e+003	-1.88831296513875e+001,5.63236053956891e-001
6.91629785046306e+003	-1.88828948384104e+001,5.67144745393999e-001
6.96440450636913e+003	-1.88826567580269e+001,5.71080436837335e-001
7.01284577052842e+003	-1.88824153649192e+001,5.75043312170945e-001
7.06162397032538e+003	-1.88821706131448e+001,5.79033556476569e-001
7.11074144933271e+003	-1.88819224561283e+001,5.83051356039745e-001
7.16020056742393e+003	-1.88816708466531e+001,5.87096898356185e-001
7.21000370088679e+003	-1.88814157368521e+001,5.91170372139406e-001
7.26015324253744e+003	-1.88811570781993e+001,5.95271967326438e-001
7.31065160183536e+003	-1.88808948215007e+001,5.99401875085142e-001
7.36150120499915e+003	-1.88806289168855e+001,6.03560287820067e-001
7.41270449512312e+003	-1.88803593137962e+001,6.07747399180321e-001
7.46426393229462e+003	-1.88800859609801e+001,6.11963404064995e-001
7.51618199371225e+003	-1.88798088064797e+001,6.16208498631161e-001
7.56846117380493e+003	-1.88795277976226e+001,6.20482880299289e-001
