Freq.	V(n002)
1.00000000000000e-003,-3.83097158429855e-008,-5.40000547164590e-003
1.00695555005672e-003,-3.98348180604218e-008,-5.43756394059734e-003
1.01395947979003e-003,-3.93925283015425e-008,-5.47538703318916e-003
1.02101212570719e-003,-4.09327444236235e-008,-5.51346986160793e-003
1.02811382665607e-003,-4.14932375866853e-008,-5.55181975572444e-003
1.03526492384138e-003,-4.20615350520079e-008,-5.59043508646970e-003
1.04246576084112e-003,-4.06628590586191e-008,-5.62932155468302e-003
1.04971668362307e-003,-4.12471441090312e-008,-5.66847671514650e-003
1.05701804056138e-003,-4.18395690476670e-008,-5.70790301179945e-003
1.06437018245336e-003,-4.34277508186080e-008,-5.74760451509984e-003
1.07177346253629e-003,-4.40368538010111e-008,-5.78758285479858e-003
1.07922823650443e-003,-4.46544447938612e-008,-5.82783803024501e-003
1.08673486252606e-003,-4.42932086873682e-008,-5.86837492744204e-003
1.09429370126074e-003,-4.59156182980365e-008,-5.90919110172287e-003
1.10190511587661e-003,-4.45845397311242e-008,-5.95029551288681e-003
1.10956947206785e-003,-4.81997224190343e-008,-5.99168001330585e-003
1.11728713807222e-003,-4.78741876440573e-008,-6.03335600819558e-003
1.12505848468881e-003,-4.85453470282465e-008,-6.07532105149338e-003
1.13288388529580e-003,-4.82384392027039e-008,-6.11758002991167e-003
1.14076371586843e-003,-4.99159340922974e-008,-6.16013049869621e-003
1.14869835499704e-003,-5.16030568276981e-008,-6.20297653034283e-003
1.15668818390529e-003,-5.23124874765710e-008,-6.24612138245087e-003
1.16473358646846e-003,-5.30318410551932e-008,-6.28956749698895e-003
1.17283494923188e-003,-5.47486785779408e-008,-6.33331405901408e-003
1.18099266142953e-003,-5.35133133686293e-008,-6.37736677096900e-003
1.18920711500272e-003,-5.52506688871084e-008,-6.42172481429882e-003
1.19747870461893e-003,-5.50235360158319e-008,-6.46639063529949e-003
1.20580782769076e-003,-5.48070647490989e-008,-6.51136993208114e-003
1.21419488439505e-003,-5.75636989774394e-008,-6.55665781707234e-003
1.22264027769207e-003,-5.93438185628525e-008,-6.60226324967767e-003
1.23114441334492e-003,-5.71851184764819e-008,-6.64818623217821e-003
1.23970769993899e-003,-6.09624528342740e-008,-6.69442757125356e-003
1.24833054890162e-003,-6.08012905696241e-008,-6.74099134558128e-003
1.25701337452183e-003,-5.96642067225350e-008,-6.78787999557883e-003
1.26575659397028e-003,-6.24886563176625e-008,-6.83509188893609e-003
1.27456062731927e-003,-6.23625724291594e-008,-6.88263354484209e-003
1.28342589756291e-003,-6.32360149312875e-008,-6.93050740286364e-003
1.29235283063750e-003,-6.31341173401380e-008,-6.97871102190417e-003
1.30134185544194e-003,-6.50196022394588e-008,-7.02725417025504e-003
1.31039340385837e-003,-6.69175713226671e-008,-7.07613196415735e-003
1.31950791077290e-003,-6.78407528720389e-008,-7.12534847553309e-003
1.32868581409652e-003,-6.87768602669728e-008,-7.17490940314093e-003
1.33792755478612e-003,-6.87385755019201e-008,-7.22481556202631e-003
1.34723357686570e-003,-7.06884630128352e-008,-7.27506776395001e-003
1.35660432744768e-003,-7.06768650463006e-008,-7.32567089754054e-003
1.36604025675440e-003,-7.36412752060352e-008,-7.37662414442111e-003
1.37554181813975e-003,-7.16821610091812e-008,-7.42793321085015e-003
1.38510946811093e-003,-7.36869370762913e-008,-7.47959890348819e-003
1.39474366635041e-003,-7.47184357456668e-008,-7.53162366921225e-003
1.40444487573800e-003,-7.57642961442494e-008,-7.58400832140190e-003
1.41421356237310e-003,-7.58373719159751e-008,-7.63676181737318e-003
1.42405019559708e-003,-7.98750476990693e-008,-7.68987763899441e-003
1.43395524801583e-003,-7.89904623912906e-008,-7.74336719322857e-003
1.44392919552250e-003,-8.00959587301240e-008,-7.79722477440700e-003
1.45397251732032e-003,-8.12169527759579e-008,-7.85146015494874e-003
1.46408569594563e-003,-8.33410277259548e-008,-7.90607089128864e-003
1.47426921729111e-003,-8.54809427195926e-008,-7.96106024120214e-003
1.48452357062906e-003,-8.46746203005362e-008,-8.01643634964818e-003
1.49484924863495e-003,-8.38845776580022e-008,-8.07219595704224e-003
1.50524674741107e-003,-8.60734313068588e-008,-8.12834068905905e-003
1.51571656651041e-003,-9.02540233197207e-008,-8.18487706035173e-003
1.52625920896057e-003,-9.05017513338362e-008,-8.24180751916953e-003
1.53687518128802e-003,-8.97792820100341e-008,-8.29913531965040e-003
1.54756499354240e-003,-9.10492241505067e-008,-8.35686127318867e-003
1.55832915932101e-003,-9.33242934992420e-008,-8.41498538070197e-003
1.56916819579351e-003,-9.36424367058116e-008,-8.47351578728442e-003
1.58008262372676e-003,-9.49663165756253e-008,-8.53245493273543e-003
1.59107296750985e-003,-9.82836108120911e-008,-8.59180363028120e-003
1.60213975517925e-003,-9.86572269569857e-008,-8.65156514168780e-003
1.61328351844426e-003,-1.00037249008985e-007,-8.71173946305595e-003
1.62450479271248e-003,-1.00449176920317e-007,-8.77233718125369e-003
1.63580411711557e-003,-1.01867985188089e-007,-8.83335096629022e-003
1.64718203453516e-003,-1.06269049471270e-007,-8.89479058679503e-003
1.65863909162889e-003,-1.05752876794931e-007,-8.95665930773820e-003
1.67017583885675e-003,-1.07232041356118e-007,-9.01895956471830e-003
1.68179283050744e-003,-1.09719242503534e-007,-9.08168973027918e-003
1.69349062472506e-003,-1.10252499205723e-007,-9.14485876396813e-003
1.70526978353592e-003,-1.09819499774188e-007,-9.20846666477931e-003
1.71713087287552e-003,-1.14345335500956e-007,-9.27251505485944e-003
1.72907446261574e-003,-1.15930578979324e-007,-9.33700882792359e-003
1.74110112659226e-003,-1.17538074314574e-007,-9.40195612305503e-003
1.75321144263208e-003,-1.17193007083899e-007,-9.46735287129581e-003
1.76540599258132e-003,-1.18845581836078e-007,-9.53320232524765e-003
1.77768536233315e-003,-1.19533826215712e-007,-9.59951263036191e-003
1.79005014185596e-003,-1.25182730267459e-007,-9.66628052318393e-003
1.80250092522167e-003,-1.23943164437626e-007,-9.73351741598501e-003
1.81503831063433e-003,-1.26677402182170e-007,-9.80121678289743e-003
1.82766290045881e-003,-1.29436059592375e-007,-9.86938839898445e-003
1.84037530124976e-003,-1.30244619255343e-007,-9.93803878028216e-003
1.85317612378075e-003,-1.32065539551382e-007,-1.00071597812056e-002
1.86606598307363e-003,-1.32924570186311e-007,-1.00767676884673e-002
1.87904549842804e-003,-1.36771649562157e-007,-1.01468543552613e-002
1.89211529345121e-003,-1.35707662692556e-007,-1.02174344468013e-002
1.90527599608789e-003,-1.40594854119904e-007,-1.02884998081258e-002
1.91852823865054e-003,-1.40571709296004e-007,-1.03600651080460e-002
1.93187265784971e-003,-1.42550590293130e-007,-1.04321221961614e-002
1.94530989482459e-003,-1.45544666083745e-007,-1.05046841011759e-002
1.95884059517387e-003,-1.48566713158366e-007,-1.05777491958206e-002
1.97246540898673e-003,-1.49642255565772e-007,-1.06513239962983e-002
1.98618499087409e-003,-1.51734063170580e-007,-1.07254101274475e-002
2.00000000000002e-003,-1.52867620484115e-007,-1.08000124770310e-002
2.01391110011345e-003,-1.55018181670302e-007,-1.08751310426071e-002
2.02791895958007e-003,-1.59173717595325e-007,-1.09507723366830e-002
2.04202425141440e-003,-1.59409798464052e-007,-1.10269396236154e-002
2.05622765331215e-003,-1.63626710942595e-007,-1.11036394071957e-002
2.07052984768277e-003,-1.63925004434794e-007,-1.11808716974818e-002
2.08493152168226e-003,-1.68204877857040e-007,-1.12586397412362e-002
2.09943336724615e-003,-1.68567173764593e-007,-1.13369533193289e-002
2.11403608112278e-003,-1.70936920806161e-007,-1.14158075387488e-002
2.12874036490674e-003,-1.75314649363505e-007,-1.14952089132182e-002
2.14354692507261e-003,-1.77751070973643e-007,-1.15751655901760e-002
2.15845647300887e-003,-1.80221476449419e-007,-1.16556775670220e-002
2.17346972505214e-003,-1.80751377296283e-007,-1.17367481033178e-002
2.18858740252150e-003,-1.84278699199198e-007,-1.18183837061803e-002
2.20381023175324e-003,-1.86854019650138e-007,-1.19005876378290e-002
2.21913894413571e-003,-1.88477812133051e-007,-1.19833631551782e-002
2.23457427614446e-003,-1.92112969960436e-007,-1.20667135110354e-002
2.25011696937764e-003,-1.93810195982549e-007,-1.21506452246449e-002
2.26576777059162e-003,-1.96532295758991e-007,-1.22351582918945e-002
2.28152743173687e-003,-1.99292445006007e-007,-1.23202608563805e-002
2.29739670999409e-003,-2.03078518161305e-007,-1.24059529166911e-002
2.31337636781060e-003,-2.06903818231873e-007,-1.24922458733294e-002
2.32946717293693e-003,-2.09781120735942e-007,-1.25791348423950e-002
2.34566989846378e-003,-2.12698637625960e-007,-1.26666295931458e-002
2.36198532285908e-003,-2.13682006726804e-007,-1.27547350138136e-002
2.37841423000546e-003,-2.17668904945624e-007,-1.28434478402720e-002
2.39495740923788e-003,-2.20710431460658e-007,-1.29327843627613e-002
2.41161565538154e-003,-2.22806908356294e-007,-1.30227413244176e-002
2.42838976879012e-003,-2.26921143131604e-007,-1.31133170923570e-002
2.44528055538416e-003,-2.31079144876425e-007,-1.32045263255242e-002
2.46228882668986e-003,-2.34294015048906e-007,-1.32963722823183e-002
2.47941539987800e-003,-2.37553744773221e-007,-1.33888565896952e-002
2.49666109780325e-003,-2.38884034549815e-007,-1.34819841360518e-002
2.51402674904368e-003,-2.44210248662954e-007,-1.35757565406432e-002
2.53151318794059e-003,-2.47608448104513e-007,-1.36701852117743e-002
2.54912125463855e-003,-2.51054000849016e-007,-1.37652685179336e-002
2.56685179512583e-003,-2.53560232076396e-007,-1.38610146029224e-002
2.58470566127501e-003,-2.55127768598711e-007,-1.39574267236639e-002
2.60268371088389e-003,-2.60694592075208e-007,-1.40545081290944e-002
2.62078680771675e-003,-2.62361691555429e-007,-1.41522653457243e-002
2.63901582154582e-003,-2.67041950909610e-007,-1.42506999907992e-002
2.65737162819305e-003,-2.71773855789727e-007,-1.43498218397766e-002
2.67585510957225e-003,-2.76557885466631e-007,-1.44496292642117e-002
2.69446715373141e-003,-2.80407543517822e-007,-1.45501336648726e-002
2.71320865489537e-003,-2.82336106902294e-007,-1.46513399287902e-002
2.73208051350882e-003,-2.88269030580756e-007,-1.47532496744213e-002
2.75108363627952e-003,-2.92282180721318e-007,-1.48558661686404e-002
2.77021893622188e-003,-2.94376453181565e-007,-1.49591975537470e-002
2.78948733270084e-003,-2.99489986827302e-007,-1.50632487065849e-002
2.80888975147603e-003,-3.03673489283279e-007,-1.51680196339407e-002
2.82842712474622e-003,-3.07915485918810e-007,-1.52735217332262e-002
2.84810039119418e-003,-3.11229252726606e-007,-1.53797582630825e-002
2.86791049603169e-003,-3.17565295214704e-007,-1.54867292165008e-002
2.88785839104503e-003,-3.21000072591448e-007,-1.55944508884552e-002
2.90794503464065e-003,-3.24496375992869e-007,-1.57029167599190e-002
2.92817139189128e-003,-3.29042992124859e-007,-1.58121431135462e-002
2.94853843458224e-003,-3.34640376151648e-007,-1.59221250639632e-002
2.96904714125813e-003,-3.39314588246996e-007,-1.60328707569971e-002
2.98969849726991e-003,-3.44054116175411e-007,-1.61443883330772e-002
3.01049349482217e-003,-3.47872381538914e-007,-1.62566826793818e-002
3.03143313302083e-003,-3.54720033547087e-007,-1.63697554169535e-002
3.05251841792116e-003,-3.58673290301258e-007,-1.64836146991357e-002
3.07375036257606e-003,-3.62695710554672e-007,-1.65982702910582e-002
3.09512998708482e-003,-3.69750283149473e-007,-1.67137189301293e-002
3.11665831864204e-003,-3.73913416149337e-007,-1.68299720268186e-002
3.13833639158704e-003,-3.78148480268714e-007,-1.69470344607993e-002
3.16016524745355e-003,-3.85418643720017e-007,-1.70649062262557e-002
3.18214593501972e-003,-3.89800644356329e-007,-1.71836052476695e-002
3.20427951035853e-003,-3.95244922143439e-007,-1.73031266319661e-002
3.22656703688855e-003,-4.00765313340080e-007,-1.74234817801932e-002
3.24900958542498e-003,-4.06362535406067e-007,-1.75446690639059e-002
3.27160823423117e-003,-4.12038071477262e-007,-1.76667031391023e-002
3.29436406907034e-003,-4.18780057348778e-007,-1.77895807468743e-002
3.31727818325781e-003,-4.23627826262316e-007,-1.79133214346203e-002
3.34035167771352e-003,-4.29544251357846e-007,-1.80379170540460e-002
3.36358566101490e-003,-4.34555860486482e-007,-1.81633806367975e-002
3.38698124945015e-003,-4.41626006064696e-007,-1.82897138051221e-002
3.41053956707187e-003,-4.49768803039341e-007,-1.84169312170296e-002
3.43426174575106e-003,-4.55035094934211e-007,-1.85450296240100e-002
3.45814892523151e-003,-4.61376226283521e-007,-1.86740204168220e-002
3.48220225318454e-003,-4.66818488670980e-007,-1.88039101134657e-002
3.50642288526419e-003,-4.74325469820011e-007,-1.89347035928681e-002
3.53081198516267e-003,-4.79948295793379e-007,-1.90664024920453e-002
3.55537072466633e-003,-4.87638382499058e-007,-1.91990182014723e-002
3.58010028371194e-003,-4.94434607995026e-007,-1.93325572414230e-002
3.60500185044337e-003,-5.01325924868950e-007,-1.94670293803980e-002
3.63007662126869e-003,-5.08313155692431e-007,-1.96024313615037e-002
3.65532580091765e-003,-5.14410681554588e-007,-1.97387794714290e-002
3.68075060249955e-003,-5.20607163818591e-007,-1.98760769648456e-002
3.70635224756154e-003,-5.28878489332829e-007,-2.00143222087562e-002
3.73213196614728e-003,-5.36263981660776e-007,-2.01535282374933e-002
3.75809099685610e-003,-5.42765744962836e-007,-2.02937145924393e-002
3.78423058690244e-003,-5.52334051485641e-007,-2.04348682367892e-002
3.81055199217581e-003,-5.59045861729030e-007,-2.05770022119807e-002
3.83705647730111e-003,-5.66852879967979e-007,-2.07201295362995e-002
3.86374531569944e-003,-5.74768223054086e-007,-2.08642404413894e-002
3.89061978964920e-003,-5.80820058160146e-007,-2.10093707578088e-002
3.91768119034777e-003,-5.88958354748691e-007,-2.11555009346945e-002
3.94493081797350e-003,-5.98198079251774e-007,-2.13026537725994e-002
3.97236998174820e-003,-6.07552213511975e-007,-2.14508162463379e-002
4.00000000000006e-003,-6.15048864906085e-007,-2.16000209297137e-002
4.02782220022694e-003,-6.23651297191302e-007,-2.17502613016277e-002
4.05583791916018e-003,-6.33361127548192e-007,-2.19015438758050e-002
4.08404850282884e-003,-6.42205417055346e-007,-2.20538816847529e-002
4.11245530662433e-003,-6.51173295753212e-007,-2.22072812397778e-002
4.14105969536558e-003,-6.60266052948091e-007,-2.23617425408741e-002
4.16986304336455e-003,-6.70473621006180e-007,-2.25172851268106e-002
4.19886673449234e-003,-6.78834531727448e-007,-2.26739024914798e-002
4.22807216224559e-003,-6.87326041335892e-007,-2.28316109142415e-002
4.25748072981351e-003,-6.98911928570489e-007,-2.29904103872487e-002
4.28709385014524e-003,-7.08658004226627e-007,-2.31503302354972e-002
4.31691294601778e-003,-7.17551951857443e-007,-2.33113509150953e-002
4.34693945010430e-003,-7.26584063526693e-007,-2.34734952216571e-002
4.37717480504303e-003,-7.38717994553057e-007,-2.36367598902204e-002
4.40762046350651e-003,-7.48032414098786e-007,-2.38011775057388e-002
4.43827788827145e-003,-7.57489586919135e-007,-2.39667220050838e-002
4.46914855228895e-003,-7.67093275820678e-007,-2.41334292140349e-002
4.50023393875531e-003,-7.79806598041394e-007,-2.43012860967371e-002
4.53153554118327e-003,-7.89707934381840e-007,-2.44703187248132e-002
4.56305486347377e-003,-8.02723268596847e-007,-2.46405205678453e-002
4.59479341998822e-003,-8.13917669855734e-007,-2.48119046673064e-002
4.62675273562123e-003,-8.24281294258786e-007,-2.49844873049167e-002
4.65893434587390e-003,-8.34803248723170e-007,-2.51582684778564e-002
4.69133979692759e-003,-8.46473310378586e-007,-2.53332579539175e-002
4.72397064571820e-003,-8.61268540704421e-007,-2.55094622410048e-002
4.75682846001096e-003,-8.72279214494071e-007,-2.56868943869213e-002
4.78991481847580e-003,-8.83457615719650e-007,-2.58655641508018e-002
4.82323131076312e-003,-8.95793411583206e-007,-2.60454780434623e-002
4.85677953758027e-003,-9.08300683227987e-007,-2.62266328109217e-002
4.89056111076836e-003,-9.20983030489547e-007,-2.64090545082799e-002
4.92457765337975e-003,-9.33842279805072e-007,-2.65927431355284e-002
4.95883079975603e-003,-9.44906488331849e-007,-2.67777149831867e-002
4.99332219560654e-003,-9.60101900303285e-007,-2.69639635192024e-002
5.02805349808740e-003,-9.74494680281274e-007,-2.71515115569687e-002
5.06302637588121e-003,-9.89074700875629e-007,-2.73403656072024e-002
5.09824250927714e-003,-1.00088220834796e-006,-2.75305354499443e-002
5.13370359025171e-003,-1.01485678748791e-006,-2.77220243265151e-002
5.16941132255006e-003,-1.02902645494156e-006,-2.79148452706725e-002
5.20536742176783e-003,-1.04339445760086e-006,-2.81090145668511e-002
5.24157361543355e-003,-1.05796189383590e-006,-2.83045191874716e-002
5.27803164309167e-003,-1.07273377525814e-006,-2.85013982152004e-002
5.31474325638614e-003,-1.08573631423450e-006,-2.86996386289764e-002
5.35171021914455e-003,-1.10388569522452e-006,-2.88992632041703e-002
5.38893430746286e-003,-1.11829711300011e-006,-2.91002752270637e-002
5.42641730979079e-003,-1.13292366842814e-006,-2.93026877121603e-002
5.46416102701768e-003,-1.14974179527287e-006,-2.95064908820670e-002
5.50216727255908e-003,-1.16579489792438e-006,-2.97117303432054e-002
5.54043787244380e-003,-1.18108402942415e-006,-2.99183898111794e-002
5.57897466540173e-003,-1.19857600341620e-006,-3.01264953308921e-002
5.61777950295210e-003,-1.21531000534108e-006,-3.03360371418484e-002
5.65685424949249e-003,-1.23326520380965e-006,-3.05470380353869e-002
5.69620078238840e-003,-1.24948268300613e-006,-3.07595110494639e-002
5.73582099206342e-003,-1.26791507424017e-006,-3.09734594270067e-002
5.77571678209010e-003,-1.28461606832890e-006,-3.11888962095859e-002
5.81589006928135e-003,-1.30353916738575e-006,-3.14058344106068e-002
5.85634278378262e-003,-1.32172508623982e-006,-3.16242805544654e-002
5.89707686916452e-003,-1.33819033415293e-006,-3.18442509292724e-002
5.93809428251631e-003,-1.35886239864591e-006,-3.20657455132994e-002
5.97939699453987e-003,-1.37683276339170e-006,-3.22887773594540e-002
6.02098698964439e-003,-1.39605486882208e-006,-3.25133562238356e-002
6.06286626604171e-003,-1.41554625217632e-006,-3.27395081651737e-002
6.10503683584236e-003,-1.43432169560102e-006,-3.29672266734109e-002
6.14750072515217e-003,-1.45534872546539e-006,-3.31965377924049e-002
6.19025997416968e-003,-1.47566724265538e-006,-3.34274350195773e-002
6.23331663728412e-003,-1.49626965312632e-006,-3.36599411493902e-002
6.27667278317413e-003,-1.51715949981996e-006,-3.38940626955868e-002
6.32033049490715e-003,-1.53834095924136e-006,-3.41298126857023e-002
6.36429187003948e-003,-1.55883107583598e-006,-3.43672074080525e-002
6.40855902071711e-003,-1.58159596134727e-006,-3.46062533646761e-002
6.45313407377714e-003,-1.60367661691691e-006,-3.48469538241449e-002
6.49801917085002e-003,-1.62507862503245e-006,-3.50893348416236e-002
6.54321646846239e-003,-1.64876762397528e-006,-3.53333964051226e-002
6.58872813814072e-003,-1.67178628411587e-006,-3.55791580679011e-002
6.63455636651567e-003,-1.69611440483990e-006,-3.58266361063167e-002
6.68070335542710e-003,-1.71879324857576e-006,-3.60758337894348e-002
6.72717132202986e-003,-1.74180146234039e-006,-3.63267543660314e-002
6.77396249890036e-003,-1.76613372311918e-006,-3.65794369145725e-002
6.82107913414380e-003,-1.79179102418076e-006,-3.68338553798328e-002
6.86852349150218e-003,-1.81680670604671e-006,-3.70900586234531e-002
6.91629785046307e-003,-1.84118407828407e-006,-3.73480433885930e-002
6.96440450636914e-003,-1.86789048610866e-006,-3.76078226900350e-002
7.01284577052843e-003,-1.89396720925758e-006,-3.78693965404714e-002
7.06162397032539e-003,-1.92040905105253e-006,-3.81328007613998e-002
7.11074144933272e-003,-1.94623268655881e-006,-3.83980386140277e-002
7.16020056742394e-003,-1.97440472428215e-006,-3.86651133421159e-002
7.21000370088680e-003,-2.00196964742081e-006,-3.89340542707087e-002
7.26015324253745e-003,-2.02991890634154e-006,-3.92048613954028e-002
7.31065160183537e-003,-2.05727107100137e-006,-3.94775542619694e-002
7.36150120499916e-003,-2.08699331696903e-006,-3.97521393706808e-002
